 time            i(VIin)         v(Vout)        
 0.00000000e+00 -1.00000000e-06  2.75878851e-01 
 1.00000000e-11 -9.78743363e-07  2.75878830e-01 
 2.00000000e-11 -9.57486726e-07  2.75878790e-01 
 4.00000000e-11 -9.14973452e-07  2.75878668e-01 
 8.00000000e-11 -8.29946905e-07  2.75878182e-01 
 1.60000000e-10 -6.59893821e-07  2.75876256e-01 
 3.20000000e-10 -3.19787722e-07  2.75868693e-01 
 6.40000000e-10  3.60423905e-07  2.75839477e-01 
 1.00000000e-09  1.12566040e-06  2.75785586e-01 
 1.06400000e-09  1.13370220e-06  2.75774247e-01 
 1.19200000e-09  1.14978554e-06  2.75751841e-01 
 1.44800000e-09  1.18195101e-06  2.75708579e-01 
 1.96000000e-09  1.24627596e-06  2.75627574e-01 
 2.98400000e-09  1.37489263e-06  2.75483388e-01 
 5.00000000e-09  1.62790520e-06  2.75246533e-01 
 5.05000000e-09  1.63417586e-06  2.75253039e-01 
 5.15000000e-09  1.64671643e-06  2.75264280e-01 
 5.35000000e-09  1.67179449e-06  2.66768297e-01 
 5.50000000e-09  1.69060026e-06  2.52419959e-01 
 5.51832499e-09  1.69289753e-06  2.50563775e-01 
 5.55497496e-09  1.69749196e-06  2.46989116e-01 
 5.62827491e-09  1.70668037e-06  2.40520620e-01 
 5.77487480e-09  1.72505539e-06  2.29825495e-01 
 6.06807458e-09  1.76179798e-06  2.15291334e-01 
 6.65447415e-09  1.83525164e-06  2.03485109e-01 
 7.58312919e-09  1.95148258e-06  2.08717669e-01 
 8.63678324e-09  2.08320069e-06  2.28449763e-01 
 9.50000000e-09  2.19097160e-06  2.48266113e-01 
 9.55000000e-09  2.19720983e-06  2.49693080e-01 
 9.65000000e-09  2.20968487e-06  2.52738951e-01 
 9.82088118e-09  2.23099793e-06  2.59061568e-01 
 9.99194277e-09  2.25232781e-06  2.67101300e-01 
 1.00000000e-08  2.25333234e-06  2.67522428e-01 
 1.00161145e-08  2.25534134e-06  2.68361477e-01 
 1.00483434e-08  2.25935921e-06  2.70032826e-01 
 1.01067749e-08  2.26664313e-06  2.73029884e-01 
 1.02236380e-08  2.28120893e-06  2.78898771e-01 
 1.04573642e-08  2.31033221e-06  2.90148055e-01 
 1.09248167e-08  2.36854460e-06  3.10806467e-01 
 1.10000000e-08  2.37790291e-06  3.13907573e-01 
 1.10934905e-08  2.20255728e-06  3.17642372e-01 
 1.12804715e-08  1.85186025e-06  3.24945218e-01 
 1.16544334e-08  1.15044268e-06  3.38594507e-01 
 1.20000000e-08  5.02255891e-07  3.50147121e-01 
 1.20747924e-08  5.11547256e-07  3.52499000e-01 
 1.22243772e-08  5.30125973e-07  3.57117416e-01 
 1.25235467e-08  5.67267121e-07  3.65862107e-01 
 1.31218858e-08  6.41482438e-07  3.81571442e-01 
 1.43185641e-08  7.89630481e-07  4.07160328e-01 
 1.50000000e-08  8.73813146e-07  4.18838803e-01 
 1.50500000e-08  8.79984668e-07  4.19635895e-01 
 1.51500000e-08  8.92325484e-07  4.21212353e-01 
 1.53297143e-08  9.14496166e-07  4.23696804e-01 
 1.54730507e-08  9.32172053e-07  4.24575251e-01 
 1.55000000e-08  9.35494681e-07  4.24542734e-01 
 1.55150073e-08  9.37344855e-07  4.24488404e-01 
 1.55450218e-08  9.41044997e-07  4.24387886e-01 
 1.56050509e-08  9.48444452e-07  4.24220383e-01 
 1.57251091e-08  9.63240032e-07  4.24006688e-01 
 1.59652255e-08  9.92817752e-07  4.24023509e-01 
 1.64454583e-08  1.05191849e-06  4.25467758e-01 
 1.74059238e-08  1.16989364e-06  4.32418105e-01 
 1.93268548e-08  1.40487851e-06  4.55910417e-01 
 1.95000000e-08  1.42599231e-06  4.58476488e-01 
 1.95500000e-08  1.43208731e-06  4.59257738e-01 
 1.96500000e-08  1.44427444e-06  4.60895981e-01 
 1.98216455e-08  1.46518409e-06  4.64028875e-01 
 1.99923545e-08  1.48596828e-06  4.67436901e-01 
 2.00000000e-08  1.48689887e-06  4.67595093e-01 
 2.00152910e-08  1.48875999e-06  4.67917680e-01 
 2.00458731e-08  1.49248194e-06  4.68561484e-01 
 2.01027565e-08  1.49940388e-06  4.69751036e-01 
 2.02165232e-08  1.51324391e-06  4.72099143e-01 
 2.04440565e-08  1.54090855e-06  4.76675913e-01 
 2.08991233e-08  1.59617527e-06  4.85383529e-01 
 2.18092568e-08  1.70645222e-06  5.01242392e-01 
 2.36295238e-08  1.92592968e-06  5.28186285e-01 
 2.50000000e-08  2.09016994e-06  5.45297512e-01 
 2.50500000e-08  2.09614500e-06  5.45891924e-01 
 2.51500000e-08  2.10809144e-06  5.47070172e-01 
 2.53293813e-08  2.12950880e-06  5.49242439e-01 
 2.54719937e-08  2.14652478e-06  5.50817196e-01 
 2.55000000e-08  2.14986520e-06  5.51047470e-01 
 2.55149584e-08  2.15164919e-06  5.51148092e-01 
 2.55448753e-08  2.15521683e-06  5.51353869e-01 
 2.56047089e-08  2.16235078e-06  5.51777078e-01 
 2.57243763e-08  2.17661332e-06  5.52657717e-01 
 2.59637110e-08  2.20511680e-06  5.54552802e-01 
 2.64423805e-08  2.26203654e-06  5.58783989e-01 
 2.73997194e-08  2.37551989e-06  5.68439954e-01 
 2.86276985e-08  2.52036756e-06  5.82012216e-01 
 2.95000000e-08  2.62275367e-06  5.91910323e-01 
 2.95500000e-08  2.62860933e-06  5.92480413e-01 
 2.96500000e-08  2.64031635e-06  5.93649854e-01 
 2.98216786e-08  2.66040138e-06  5.95761382e-01 
 2.99922929e-08  2.68034502e-06  5.97492051e-01 
 3.00000000e-08  2.68124553e-06  5.97553558e-01 
 3.00154143e-08  2.68304645e-06  5.97688870e-01 
 3.00462428e-08  2.68664787e-06  5.97959855e-01 
 3.01033668e-08  2.69331971e-06  5.98461773e-01 
 3.02176150e-08  2.70665768e-06  5.99462684e-01 
 3.04461112e-08  2.73331066e-06  6.01454223e-01 
 3.09031037e-08  2.78652408e-06  6.05397280e-01 
 3.18170886e-08  2.89257452e-06  6.13137904e-01 
 3.36450585e-08  3.10312102e-06  6.28126916e-01 
 3.50000000e-08  3.25779292e-06  6.38877369e-01 
 3.50500000e-08  3.26347727e-06  6.39280145e-01 
 3.51500000e-08  3.27484093e-06  6.40073581e-01 
 3.53293199e-08  3.29520131e-06  6.41700108e-01 
 3.54717101e-08  3.31135308e-06  6.43280146e-01 
 3.55000000e-08  3.31456046e-06  6.43598776e-01 
 3.55149384e-08  3.31625388e-06  6.43755113e-01 
 3.55448151e-08  3.31964026e-06  6.44070446e-01 
 3.56045686e-08  3.32641120e-06  6.44702810e-01 
 3.57240756e-08  3.33994576e-06  6.45963860e-01 
 3.59630895e-08  3.36698548e-06  6.48478849e-01 
 3.64411174e-08  3.42094648e-06  6.53475957e-01 
 3.73971731e-08  3.52838797e-06  6.63355395e-01 
 3.93092846e-08  3.74129468e-06  6.82712557e-01 
 3.95000000e-08  3.76238204e-06  6.84616238e-01 
 3.95500000e-08  3.76790600e-06  6.85109185e-01 
 3.96500000e-08  3.77894829e-06  6.86112067e-01 
 3.98215906e-08  3.79787822e-06  6.87925283e-01 
 3.99921518e-08  3.81667247e-06  6.89182582e-01 
 4.00000000e-08  3.81753674e-06  6.89215476e-01 
 4.00156964e-08  3.81926513e-06  6.89297322e-01 
 4.00470892e-08  3.82272136e-06  6.89461740e-01 
 4.01047851e-08  3.82907149e-06  6.89765256e-01 
 4.02201769e-08  3.84176414e-06  6.90374947e-01 
 4.04509606e-08  3.86711887e-06  6.91605989e-01 
 4.09125278e-08  3.91770531e-06  6.94110835e-01 
 4.18356623e-08  4.01838017e-06  6.99272212e-01 
 4.36819314e-08  4.21769046e-06  7.10067582e-01 
 4.50000000e-08  4.35826795e-06  7.18073543e-01 
 4.50500000e-08  4.36357196e-06  7.18394781e-01 
 4.51500000e-08  4.37417363e-06  7.19019515e-01 
 4.53292842e-08  4.39315948e-06  7.20389936e-01 
 4.54715284e-08  4.40820341e-06  7.21894947e-01 
 4.55000000e-08  4.41121252e-06  7.22228493e-01 
 4.55149225e-08  4.41278938e-06  7.22395077e-01 
 4.55447675e-08  4.41594253e-06  7.22730429e-01 
 4.56044576e-08  4.42224654e-06  7.23399914e-01 
 4.57238377e-08  4.43484541e-06  7.24723741e-01 
 4.59625980e-08  4.46000642e-06  7.27323295e-01 
 4.64401184e-08  4.51018075e-06  7.32357418e-01 
 4.73951594e-08  4.60993240e-06  7.41960015e-01 
 4.93052413e-08  4.80699740e-06  7.60117344e-01 
 4.95000000e-08  4.82690480e-06  7.61913709e-01 
 4.95500000e-08  4.83200995e-06  7.62363912e-01 
 4.96500000e-08  4.84221336e-06  7.63275368e-01 
 4.98214876e-08  4.85968945e-06  7.64935105e-01 
 4.99920865e-08  4.87704798e-06  7.66010679e-01 
 5.00000000e-08  4.87785252e-06  7.66033746e-01 
 5.00158269e-08  4.87946144e-06  7.66098771e-01 
 5.00474808e-08  4.88267857e-06  7.66229614e-01 
 5.01055270e-08  4.88857566e-06  7.66471076e-01 
 5.02216193e-08  4.90036042e-06  7.66957265e-01 
 5.04538040e-08  4.92389226e-06  7.67943822e-01 
 5.09181734e-08  4.97080445e-06  7.69969662e-01 
 5.18469122e-08  5.06401728e-06  7.74212775e-01 
 5.37043897e-08  5.24795245e-06  7.83325179e-01 
 5.50000000e-08  5.37423990e-06  7.90087142e-01 
 5.50500000e-08  5.37907992e-06  7.90372259e-01 
 5.51500000e-08  5.38875240e-06  7.90917527e-01 
 5.53292583e-08  5.40606586e-06  7.92142365e-01 
 5.54713866e-08  5.41977006e-06  7.93544475e-01 
 5.55000000e-08  5.42252653e-06  7.93867658e-01 
 5.55149098e-08  5.42396254e-06  7.94029146e-01 
 5.55447295e-08  5.42683388e-06  7.94354455e-01 
 5.56043688e-08  5.43257385e-06  7.95003849e-01 
 5.57236475e-08  5.44404294e-06  7.96286343e-01 
 5.59622047e-08  5.46693767e-06  7.98799007e-01 
 5.64393193e-08  5.51255258e-06  8.03642001e-01 
 5.73935485e-08  5.60307843e-06  8.12798477e-01 
 5.93020068e-08  5.78126896e-06  8.29874825e-01 
 5.95000000e-08  5.79953379e-06  8.31578827e-01 
 5.95500000e-08  5.80413962e-06  8.31992399e-01 
 5.96500000e-08  5.81334324e-06  8.32826752e-01 
 5.98215548e-08  5.82910741e-06  8.34354164e-01 
 5.99922009e-08  5.84475659e-06  8.35315112e-01 
 6.00000000e-08  5.84547106e-06  8.35333503e-01 
 6.00155982e-08  5.84689980e-06  8.35390952e-01 
 6.00467946e-08  5.84975649e-06  8.35506705e-01 
 6.01046492e-08  5.85505152e-06  8.35722876e-01 
 6.02203585e-08  5.86563071e-06  8.36157976e-01 
 6.04517770e-08  5.88674551e-06  8.37040665e-01 
 6.09146142e-08  5.92880022e-06  8.38852455e-01 
 6.18402884e-08  6.01220507e-06  8.42647023e-01 
 6.36916369e-08  6.17615714e-06  8.50809191e-01 
 6.50000000e-08  6.28968627e-06  8.56965067e-01 
 6.50500000e-08  6.29398597e-06  8.57234899e-01 
 6.51500000e-08  6.30257673e-06  8.57742948e-01 
 6.53292367e-08  6.31794564e-06  8.58867000e-01 
 6.54712774e-08  6.33009877e-06  8.60158331e-01 
 6.55000000e-08  6.33255346e-06  8.60463418e-01 
 6.55149001e-08  6.33382648e-06  8.60615314e-01 
 6.55447002e-08  6.33637174e-06  8.60921725e-01 
 6.56043005e-08  6.34145917e-06  8.61533923e-01 
 6.57235011e-08  6.35162167e-06  8.62743013e-01 
 6.59619023e-08  6.37189717e-06  8.65112384e-01 
 6.64387046e-08  6.41224950e-06  8.69676646e-01 
 6.73923092e-08  6.49215442e-06  8.78280520e-01 
 6.92995186e-08  6.64872533e-06  8.94191559e-01 
 6.95000000e-08  6.66493007e-06  8.95789305e-01 
 6.95500000e-08  6.66896395e-06  8.96164306e-01 
 6.96500000e-08  6.67702262e-06  8.96919390e-01 
 6.98215662e-08  6.69082033e-06  8.98308826e-01 
 6.99922970e-08  6.70451538e-06  8.99159765e-01 
 7.00000000e-08  6.70513243e-06  8.99174283e-01 
 7.00154059e-08  6.70636631e-06  8.99224567e-01 
 7.00462178e-08  6.70883322e-06  8.99326026e-01 
 7.01039286e-08  6.71345065e-06  8.99517527e-01 
 7.02193503e-08  6.72267332e-06  8.99902856e-01 
 7.04501936e-08  6.74106992e-06  9.00684482e-01 
 7.09118802e-08  6.77766753e-06  9.02288310e-01 
 7.18352534e-08  6.85007614e-06  9.05646423e-01 
 7.36819999e-08  6.99171299e-06  9.12870524e-01 
 7.50000000e-08  7.09016994e-06  9.18376470e-01 
 7.50500000e-08  7.09386151e-06  9.18642185e-01 
 7.51500000e-08  7.10123506e-06  9.19138501e-01 
 7.53292322e-08  7.11441880e-06  9.20186287e-01 
 7.54712123e-08  7.12483319e-06  9.21368962e-01 
 7.55000000e-08  7.12694164e-06  9.21655042e-01 
 7.55148932e-08  7.12803203e-06  9.21797145e-01 
 7.55446796e-08  7.13021194e-06  9.22084232e-01 
 7.56042525e-08  7.13456835e-06  9.22658304e-01 
 7.57233981e-08  7.14326749e-06  9.23791874e-01 
 7.59616895e-08  7.16061099e-06  9.26012791e-01 
 7.64382722e-08  7.19507830e-06  9.30285602e-01 
 7.73914375e-08  7.26312990e-06  9.38307714e-01 
 7.92977683e-08  7.39566707e-06  9.52992781e-01 
 7.95000000e-08  7.40944582e-06  9.54468795e-01 
 7.95500000e-08  7.41284413e-06  9.54802781e-01 
 7.96500000e-08  7.41963077e-06  9.55474874e-01 
 7.98215852e-08  7.43124466e-06  9.56720135e-01 
 7.99924102e-08  7.44276816e-06  9.57438220e-01 
 8.00000000e-08  7.44327926e-06  9.57446948e-01 
 8.00151797e-08  7.44430121e-06  9.57484886e-01 
 8.00455391e-08  7.44634420e-06  9.57561685e-01 
 8.01030180e-08  7.45020879e-06  9.57708613e-01 
 8.02179757e-08  7.45792474e-06  9.58004835e-01 
 8.04478913e-08  7.47330366e-06  9.58608490e-01 
 8.09077223e-08  7.50384920e-06  9.59857227e-01 
 8.18273844e-08  7.56408742e-06  9.62508299e-01 
 8.36667086e-08  7.68112457e-06  9.68328176e-01 
 8.50000000e-08  7.76306680e-06  9.72910768e-01 
 8.50500000e-08  7.76609202e-06  9.73176648e-01 
 8.51500000e-08  7.77213207e-06  9.73675096e-01 
 8.53292270e-08  7.78292281e-06  9.74663649e-01 
 8.54711640e-08  7.79143681e-06  9.75747816e-01 
 8.55000000e-08  7.79316310e-06  9.76017859e-01 
 8.55148882e-08  7.79405395e-06  9.76152191e-01 
 8.55446647e-08  7.79583471e-06  9.76423948e-01 
 8.56042176e-08  7.79939255e-06  9.76967635e-01 
 8.57233234e-08  7.80649344e-06  9.78040285e-01 
 8.59615350e-08  7.82063601e-06  9.80138663e-01 
 8.64379581e-08  7.84868391e-06  9.84161079e-01 
 8.73908045e-08  7.90382724e-06  9.91653269e-01 
 8.92964972e-08  8.01027652e-06  1.00514604e+00 
 8.95000000e-08  8.02133959e-06  1.00649404e+00 
 8.95500000e-08  8.02404873e-06  1.00678590e+00 
 8.96500000e-08  8.02945632e-06  1.00737341e+00 
 8.98216158e-08  8.03870335e-06  1.00847201e+00 
 8.99925516e-08  8.04787196e-06  1.00902958e+00 
 9.00000000e-08  8.04827052e-06  1.00903029e+00 
 9.00148967e-08  8.04906741e-06  1.00905073e+00 
 9.00446901e-08  8.05066024e-06  1.00909256e+00 
 9.01018089e-08  8.05371041e-06  1.00917447e+00 
 9.02160465e-08  8.05979673e-06  1.00934125e+00 
 9.04445217e-08  8.07191337e-06  1.00968843e+00 
 9.09014721e-08  8.09592219e-06  1.01043337e+00 
 9.18153728e-08  8.14303929e-06  1.01211024e+00 
 9.36431743e-08  8.23364982e-06  1.01609316e+00 
 9.50000000e-08  8.29776486e-06  1.01950600e+00 
 9.50500000e-08  8.30007602e-06  1.01976973e+00 
 9.51500000e-08  8.30468732e-06  1.02027179e+00 
 9.53292622e-08  8.31291686e-06  1.02121060e+00 
 9.54711739e-08  8.31939821e-06  1.02220791e+00 
 9.55000000e-08  8.32071112e-06  1.02246454e+00 
 9.55148861e-08  8.32138865e-06  1.02259297e+00 
 9.55446582e-08  8.32274271e-06  1.02285313e+00 
 9.56042024e-08  8.32544693e-06  1.02337375e+00 
 9.57232910e-08  8.33083971e-06  1.02439947e+00 
 9.59614680e-08  8.34156256e-06  1.02640092e+00 
 9.64378220e-08  8.36275710e-06  1.03021601e+00 
 9.73905301e-08  8.40413898e-06  1.03723977e+00 
 9.92959462e-08  8.48285332e-06  1.04959743e+00 
 9.95000000e-08  8.49096145e-06  1.05081304e+00 
 9.95500000e-08  8.49293870e-06  1.05106255e+00 
 9.96500000e-08  8.49688194e-06  1.05156556e+00 
 9.98216609e-08  8.50361598e-06  1.05251737e+00 
 9.99927016e-08  8.51028171e-06  1.05289950e+00 
 1.00000000e-07  8.51056516e-06  1.05289132e+00 
 1.00014597e-07  8.51113183e-06  1.05289240e+00 
 1.00043790e-07  8.51226420e-06  1.05289554e+00 
 1.00100530e-07  8.51446139e-06  1.05290361e+00 
 1.00214010e-07  8.51884125e-06  1.05292368e+00 
 1.00440970e-07  8.52754289e-06  1.05298125e+00 
 1.00894889e-07  8.54471360e-06  1.05316155e+00 
 1.01802727e-07  8.57812281e-06  1.05376235e+00 
 1.03618404e-07  8.64119738e-06  1.05577167e+00 
 1.05000000e-07  8.68583161e-06  1.05790673e+00 
 1.05050000e-07  8.68739226e-06  1.05816114e+00 
 1.05150000e-07  8.69050210e-06  1.05865793e+00 
 1.05329267e-07  8.69603870e-06  1.05954697e+00 
 1.05471161e-07  8.70038616e-06  1.06046721e+00 
 1.05500000e-07  8.70126596e-06  1.06071240e+00 
 1.05514884e-07  8.70171954e-06  1.06083556e+00 
 1.05544651e-07  8.70262567e-06  1.06108544e+00 
 1.05604186e-07  8.70443386e-06  1.06158563e+00 
 1.05723256e-07  8.70803394e-06  1.06256944e+00 
 1.05961395e-07  8.71516888e-06  1.06448311e+00 
 1.06437674e-07  8.72917770e-06  1.06810614e+00 
 1.07390232e-07  8.75614931e-06  1.07468325e+00 
 1.09295349e-07  8.80589518e-06  1.08592445e+00 
 1.09500000e-07  8.81090517e-06  1.08700746e+00 
 1.09550000e-07  8.81211934e-06  1.08721565e+00 
 1.09650000e-07  8.81453606e-06  1.08763651e+00 
 1.09821727e-07  8.81865006e-06  1.08844428e+00 
 1.09992938e-07  8.82270619e-06  1.08865104e+00 
 1.10000000e-07  8.82287251e-06  1.08863462e+00 
 1.10014123e-07  8.82320491e-06  1.08861755e+00 
 1.10042369e-07  8.82386878e-06  1.08858441e+00 
 1.10098394e-07  8.82518187e-06  1.08852090e+00 
 1.10210443e-07  8.82779345e-06  1.08839883e+00 
 1.10434541e-07  8.83295815e-06  1.08817611e+00 
 1.10882736e-07  8.84305356e-06  1.08781117e+00 
 1.11779128e-07  8.86230736e-06  1.08737804e+00 
 1.13571912e-07  8.89705854e-06  1.08751416e+00 
 1.15000000e-07  8.92114701e-06  1.08842774e+00 
 1.15050000e-07  8.92193255e-06  1.08866426e+00 
 1.15150000e-07  8.92349186e-06  1.08914104e+00 
 1.15329278e-07  8.92624814e-06  1.08997245e+00 
 1.15471171e-07  8.92839394e-06  1.09082724e+00 
 1.15500000e-07  8.92882605e-06  1.09106247e+00 
 1.15514883e-07  8.92904861e-06  1.09118038e+00 
 1.15544649e-07  8.92949271e-06  1.09142016e+00 
 1.15604181e-07  8.93037674e-06  1.09190034e+00 
 1.15723246e-07  8.93212811e-06  1.09284274e+00 
 1.15961375e-07  8.93556416e-06  1.09466906e+00 
 1.16437633e-07  8.94216932e-06  1.09809886e+00 
 1.17390150e-07  8.95431108e-06  1.10422315e+00 
 1.19295183e-07  8.97431455e-06  1.11433312e+00 
 1.19500000e-07  8.97612506e-06  1.11527925e+00 
 1.19550000e-07  8.97655701e-06  1.11544906e+00 
 1.19650000e-07  8.97740909e-06  1.11579382e+00 
 1.19821812e-07  8.97883628e-06  1.11646419e+00 
 1.19993252e-07  8.98021401e-06  1.11650490e+00 
 1.20000000e-07  8.98026728e-06  1.11648183e+00 
 1.20013495e-07  8.98037363e-06  1.11644996e+00 
 1.20040486e-07  8.98058545e-06  1.11638721e+00 
 1.20094467e-07  8.98100564e-06  1.11626406e+00 
 1.20202429e-07  8.98183226e-06  1.11602344e+00 
 1.20418353e-07  8.98343037e-06  1.11556622e+00 
 1.20850202e-07  8.98640606e-06  1.11474278e+00 
 1.21713900e-07  8.99147509e-06  1.11343273e+00 
 1.23441294e-07  8.99808176e-06  1.11196392e+00 
 1.25000000e-07  9.00000000e-06  1.11174900e+00 
 1.25050000e-07  8.99999803e-06  1.11196100e+00 
 1.25150000e-07  8.99998223e-06  1.11240307e+00 
 1.25329298e-07  8.99991438e-06  1.11316502e+00 
 1.25471210e-07  8.99982469e-06  1.11396753e+00 
 1.25500000e-07  8.99980261e-06  1.11419484e+00 
 1.25514885e-07  8.99979068e-06  1.11430770e+00 
 1.25544654e-07  8.99976578e-06  1.11453784e+00 
 1.25604192e-07  8.99971177e-06  1.11499892e+00 
 1.25723269e-07  8.99958697e-06  1.11590121e+00 
 1.25961423e-07  8.99927018e-06  1.11764119e+00 
 1.26437731e-07  8.99836795e-06  1.12087470e+00 
 1.27390347e-07  8.99548894e-06  1.12652816e+00 
 1.29295578e-07  8.98543443e-06  1.13545720e+00 
 1.29500000e-07  8.98401550e-06  1.13625855e+00 
 1.29550000e-07  8.98365841e-06  1.13639409e+00 
 1.29650000e-07  8.98293242e-06  1.13667093e+00 
 1.29821931e-07  8.98164735e-06  1.13721116e+00 
 1.29993623e-07  8.98031757e-06  1.13709591e+00 
 1.30000000e-07  8.98026728e-06  1.13706803e+00 
 1.30012755e-07  8.98016651e-06  1.13702535e+00 
 1.30038265e-07  8.97996420e-06  1.13694094e+00 
 1.30089285e-07  8.97955650e-06  1.13677455e+00 
 1.30191325e-07  8.97872879e-06  1.13644776e+00 
 1.30395405e-07  8.97702416e-06  1.13581942e+00 
 1.30803564e-07  8.97341805e-06  1.13465883e+00 
 1.31619884e-07  8.96541880e-06  1.13269565e+00 
 1.33252523e-07  8.94627531e-06  1.13001003e+00 
 1.35000000e-07  8.92114701e-06  1.12867678e+00 
 1.35050000e-07  8.92035756e-06  1.12886062e+00 
 1.35150000e-07  8.91876691e-06  1.12925630e+00 
 1.35329326e-07  8.91587524e-06  1.12993494e+00 
 1.35471277e-07  8.91355054e-06  1.13069299e+00 
 1.35500000e-07  8.91307631e-06  1.13091365e+00 
 1.35514888e-07  8.91282999e-06  1.13102144e+00 
 1.35544665e-07  8.91233630e-06  1.13124196e+00 
 1.35604219e-07  8.91134477e-06  1.13168384e+00 
 1.35723327e-07  8.90934505e-06  1.13254534e+00 
 1.35961542e-07  8.90527902e-06  1.13419586e+00 
 1.36437971e-07  8.89688071e-06  1.13722088e+00 
 1.37390831e-07  8.87902016e-06  1.14236250e+00 
 1.39296551e-07  8.83905264e-06  1.14999953e+00 
 1.39500000e-07  8.83445205e-06  1.15064188e+00 
 1.39550000e-07  8.83331156e-06  1.15074554e+00 
 1.39650000e-07  8.83101893e-06  1.15095916e+00 
 1.39822067e-07  8.82703774e-06  1.15136948e+00 
 1.39994034e-07  8.82301295e-06  1.15110294e+00 
 1.40000000e-07  8.82287251e-06  1.15107193e+00 
 1.40011931e-07  8.82259145e-06  1.15102210e+00 
 1.40035794e-07  8.82202867e-06  1.15092337e+00 
